time,V(vin),V(vo1),V(vs),V(vout)
0.000000000000000e+00,2.094883e-13,3.029357e+00,0.000000e+00,2.391396e-14
4.882812557061023e-11,1.102594e-05,3.029361e+00,6.135923e-08,4.718682e-06
9.765625114122045e-11,2.113722e-05,3.029365e+00,1.227185e-07,8.731304e-06
1.953125022824409e-10,3.805806e-05,3.029370e+00,2.454369e-07,1.492295e-05
3.906250045648818e-10,6.191037e-05,3.029377e+00,4.908738e-07,2.180340e-05
7.812500091297636e-10,8.652196e-05,3.029376e+00,9.817477e-07,2.304504e-05
1.562500018259527e-09,9.870174e-05,3.029358e+00,1.963495e-06,6.640420e-06
3.125000036519054e-09,8.939477e-05,3.029310e+00,3.926991e-06,-3.752880e-05
6.250000073038109e-09,6.503001e-05,3.029239e+00,7.853982e-06,-1.052145e-04
1.250000014607622e-08,3.997220e-05,3.029166e+00,1.570796e-05,-1.737841e-04
2.500000029215244e-08,2.490809e-05,3.029121e+00,3.141593e-05,-2.159763e-04
5.000000058430487e-08,2.288208e-05,3.029105e+00,6.283185e-05,-2.318365e-04
1.000000011686097e-07,3.214865e-05,3.029068e+00,1.256637e-04,-2.675334e-04
2.000000023372195e-07,6.458980e-05,3.028901e+00,2.513271e-04,-4.281867e-04
4.000000046744390e-07,1.645262e-04,3.028336e+00,5.026527e-04,-9.726196e-04
8.000000093488779e-07,4.284156e-04,3.026782e+00,1.005293e-03,-2.468258e-03
1.600000018697756e-06,1.030727e-03,3.023189e+00,2.010484e-03,-5.927450e-03
5.641406287395512e-06,4.193143e-03,3.004356e+00,7.083264e-03,-2.404070e-02
1.052421878739551e-05,8.006413e-03,2.981887e+00,1.318660e-02,-4.562043e-02
1.540703128739551e-05,1.179275e-02,2.959858e+00,1.924031e-02,-6.674046e-02
2.273125003739551e-05,1.739061e-02,2.927815e+00,2.817805e-02,-9.739300e-02
3.005546878739551e-05,2.284839e-02,2.897202e+00,3.687726e-02,-1.265940e-01
3.737968753739551e-05,2.811987e-02,2.868268e+00,4.526429e-02,-1.541102e-01
4.470390628739551e-05,3.316040e-02,2.841248e+00,5.326815e-02,-1.797244e-01
5.202812503739552e-05,3.792731e-02,2.816362e+00,6.082109e-02,-2.032368e-01
5.935234378739553e-05,4.238024e-02,2.793810e+00,6.785917e-02,-2.244678e-01
6.667656253739553e-05,4.648145e-02,2.773775e+00,7.432280e-02,-2.432582e-01
7.783727682310983e-05,5.211250e-02,2.748160e+00,8.314959e-02,-2.670944e-01
8.899799110882412e-05,5.658297e-02,2.729626e+00,9.011017e-02,-2.842586e-01
1.001587053945384e-04,5.989284e-02,2.718173e+00,9.520455e-02,-2.947508e-01
1.113194196802527e-04,6.204214e-02,2.713801e+00,9.843272e-02,-2.985712e-01
1.224801339659670e-04,6.303085e-02,2.716511e+00,9.979469e-02,-2.957196e-01
1.336408482516813e-04,6.285897e-02,2.726302e+00,9.929046e-02,-2.861960e-01
1.448015625373956e-04,6.152651e-02,2.743174e+00,9.692003e-02,-2.700005e-01
1.510794643231099e-04,6.016716e-02,2.755827e+00,9.462033e-02,-2.579279e-01
1.573573661088242e-04,5.846943e-02,2.770184e+00,9.178596e-02,-2.442207e-01
1.636352678945384e-04,5.643334e-02,2.786246e+00,8.841692e-02,-2.288791e-01
1.699131696802528e-04,5.405887e-02,2.804012e+00,8.451321e-02,-2.119030e-01
1.761910714659671e-04,5.134603e-02,2.823482e+00,8.007484e-02,-1.932923e-01
1.824689732516813e-04,4.829482e-02,2.844657e+00,7.510181e-02,-1.730472e-01
1.887468750373956e-04,4.490525e-02,2.867536e+00,6.959410e-02,-1.511676e-01
1.960710937873956e-04,4.064835e-02,2.895411e+00,6.269956e-02,-1.244614e-01
2.033953125373956e-04,3.605082e-02,2.924716e+00,5.527427e-02,-9.635268e-02
2.107195312873956e-04,3.115137e-02,2.955190e+00,4.738106e-02,-6.708943e-02
2.156023437873956e-04,2.773762e-02,2.976022e+00,4.189183e-02,-4.706656e-02
2.180437500373956e-04,2.599127e-02,2.986563e+00,3.908677e-02,-3.693032e-02
2.229265625373957e-04,2.242783e-02,3.007841e+00,3.336896e-02,-1.645816e-02
2.253679687873957e-04,2.061407e-02,3.018558e+00,3.046160e-02,-6.142388e-03
2.278093750373957e-04,1.878121e-02,3.029312e+00,2.752556e-02,4.212974e-03
2.305995536088242e-04,1.665873e-02,3.041676e+00,2.412793e-02,1.612123e-02
2.333897321802528e-04,1.452275e-02,3.054020e+00,2.071121e-02,2.801445e-02
2.361799107516814e-04,1.237330e-02,3.066345e+00,1.727540e-02,3.989262e-02
2.389700893231100e-04,1.021035e-02,3.078652e+00,1.382049e-02,5.175574e-02
2.417602678945385e-04,8.033921e-03,3.090940e+00,1.034650e-02,6.360382e-02
2.445504464659671e-04,5.844006e-03,3.103209e+00,6.853419e-03,7.543685e-02
2.473406250373957e-04,3.640604e-03,3.115459e+00,3.341247e-03,8.725484e-02
2.501308036088242e-04,1.433010e-03,3.127635e+00,-1.751086e-04,9.900310e-02
2.529209821802528e-04,-7.692338e-04,3.139685e+00,-3.680516e-03,1.106315e-01
2.557111607516814e-04,-2.966127e-03,3.151609e+00,-7.174976e-03,1.221400e-01
2.585013393231100e-04,-5.157669e-03,3.163408e+00,-1.065849e-02,1.335287e-01
2.612915178945385e-04,-7.343859e-03,3.175081e+00,-1.413105e-02,1.447975e-01
2.640816964659671e-04,-9.524700e-03,3.186629e+00,-1.759267e-02,1.559464e-01
2.668718750373957e-04,-1.170019e-02,3.198052e+00,-2.104334e-02,1.669754e-01
2.721034598588242e-04,-1.576590e-02,3.219118e+00,-2.748509e-02,1.873198e-01
2.773350446802529e-04,-1.972083e-02,3.239266e+00,-3.374286e-02,2.067726e-01
2.825666295016814e-04,-2.356499e-02,3.258496e+00,-3.981663e-02,2.253339e-01
2.877982143231100e-04,-2.729837e-02,3.276809e+00,-4.570642e-02,2.430036e-01
2.930297991445386e-04,-3.092097e-02,3.294203e+00,-5.141222e-02,2.597819e-01
2.982613839659672e-04,-3.443280e-02,3.310680e+00,-5.693404e-02,2.756685e-01
3.034929687873957e-04,-3.783385e-02,3.326240e+00,-6.227186e-02,2.906637e-01
3.122122768231100e-04,-4.317504e-02,3.349613e+00,-7.062876e-02,3.131572e-01
3.209315848588243e-04,-4.787579e-02,3.369006e+00,-7.795544e-02,3.317665e-01
3.296508928945386e-04,-5.193612e-02,3.384420e+00,-8.425189e-02,3.464916e-01
3.383702009302529e-04,-5.535602e-02,3.395853e+00,-8.951811e-02,3.573325e-01
3.470895089659672e-04,-5.813549e-02,3.403305e+00,-9.375410e-02,3.642892e-01
3.558088170016815e-04,-6.027453e-02,3.406778e+00,-9.695987e-02,3.673617e-01
3.645281250373958e-04,-6.177314e-02,3.406271e+00,-9.913541e-02,3.665500e-01
3.732474330731101e-04,-6.239314e-02,3.400803e+00,-9.991027e-02,3.608898e-01
3.819667411088244e-04,-6.229031e-02,3.391525e+00,-9.953867e-02,3.515403e-01
3.906860491445387e-04,-6.146463e-02,3.378437e+00,-9.802060e-02,3.385016e-01
3.994053571802530e-04,-5.991611e-02,3.361538e+00,-9.535606e-02,3.217737e-01
4.081246652159673e-04,-5.764476e-02,3.340828e+00,-9.154504e-02,3.013565e-01
4.168439732516816e-04,-5.465057e-02,3.316308e+00,-8.658756e-02,2.772501e-01
4.255632812873958e-04,-5.093353e-02,3.287978e+00,-8.048362e-02,2.494544e-01
4.307948661088244e-04,-4.840820e-02,3.269651e+00,-7.635828e-02,2.315150e-01
4.360264509302530e-04,-4.570474e-02,3.250553e+00,-7.195418e-02,2.128509e-01
4.412580357516815e-04,-4.282318e-02,3.230683e+00,-6.727130e-02,1.934621e-01
4.464896205731102e-04,-3.976349e-02,3.210042e+00,-6.230966e-02,1.733484e-01
4.517212053945387e-04,-3.652570e-02,3.188630e+00,-5.706924e-02,1.525100e-01
4.569527902159673e-04,-3.310978e-02,3.166447e+00,-5.155005e-02,1.309469e-01
4.621843750373959e-04,-2.951575e-02,3.143492e+00,-4.575209e-02,1.086590e-01
4.646257812873959e-04,-2.780566e-02,3.132697e+00,-4.299626e-02,9.819116e-02
4.670671875373959e-04,-2.607350e-02,3.121840e+00,-4.020663e-02,8.766999e-02
4.695085937873959e-04,-2.431925e-02,3.110920e+00,-3.738319e-02,7.709551e-02
4.719500000373959e-04,-2.254293e-02,3.099937e+00,-3.452594e-02,6.646772e-02
4.743914062873959e-04,-2.074453e-02,3.088892e+00,-3.163488e-02,5.578661e-02
4.768328125373959e-04,-1.892405e-02,3.077784e+00,-2.871001e-02,4.505219e-02
4.792742187873959e-04,-1.708150e-02,3.066613e+00,-2.575133e-02,3.426446e-02
4.817156250373959e-04,-1.522704e-02,3.055441e+00,-2.277518e-02,2.348434e-02
4.865984375373959e-04,-1.147678e-02,3.033060e+00,-1.676141e-02,1.912054e-03
4.914812500373958e-04,-7.683165e-03,3.010698e+00,-1.068454e-02,-1.960782e-02
4.988054687873957e-04,-1.942718e-03,2.977376e+00,-1.501036e-03,-5.161012e-02
5.019444196802527e-04,5.350046e-04,2.963182e+00,2.458426e-03,-6.521636e-02
5.050833705731099e-04,3.002443e-03,2.949159e+00,6.398825e-03,-7.864347e-02
5.082223214659669e-04,5.459596e-03,2.935307e+00,1.032016e-02,-9.189147e-02
5.113612723588240e-04,7.906465e-03,2.921626e+00,1.422244e-02,-1.049603e-01
5.145002232516810e-04,1.034305e-02,2.908115e+00,1.810565e-02,-1.178501e-01
5.176391741445382e-04,1.276935e-02,2.894775e+00,2.196980e-02,-1.305607e-01
5.207781250373952e-04,1.518536e-02,2.881606e+00,2.581489e-02,-1.430922e-01
5.263584821802522e-04,1.945128e-02,2.858655e+00,3.259704e-02,-1.648803e-01
5.319388393231093e-04,2.357363e-02,2.836844e+00,3.914199e-02,-1.855430e-01
5.375191964659663e-04,2.755242e-02,2.816173e+00,4.544973e-02,-2.050802e-01
5.430995536088233e-04,3.138763e-02,2.796642e+00,5.152025e-02,-2.234920e-01
5.486799107516804e-04,3.507928e-02,2.778250e+00,5.735357e-02,-2.407783e-01
5.542602678945374e-04,3.862735e-02,2.760999e+00,6.294968e-02,-2.569392e-01
5.598406250373944e-04,4.203186e-02,2.744888e+00,6.830858e-02,-2.719746e-01
5.692574777159656e-04,4.734128e-02,2.721027e+00,7.663430e-02,-2.940909e-01
5.786743303945369e-04,5.186553e-02,2.702092e+00,8.369368e-02,-3.115795e-01
5.880911830731081e-04,5.560460e-02,2.688081e+00,8.948672e-02,-3.244406e-01
5.975080357516794e-04,5.855849e-02,2.678994e+00,9.401341e-02,-3.326740e-01
6.069248884302505e-04,6.072721e-02,2.674832e+00,9.727377e-02,-3.362798e-01
6.163417411088217e-04,6.211075e-02,2.675595e+00,9.926778e-02,-3.352580e-01
6.257585937873930e-04,6.270911e-02,2.681282e+00,9.999546e-02,-3.296086e-01
6.334315848588214e-04,6.243565e-02,2.690219e+00,9.937274e-02,-3.210535e-01
6.411045759302498e-04,6.161710e-02,2.702029e+00,9.788516e-02,-3.097724e-01
6.487775670016782e-04,6.025348e-02,2.716710e+00,9.553274e-02,-2.957650e-01
6.564505580731067e-04,5.834477e-02,2.734264e+00,9.231546e-02,-2.790316e-01
6.641235491445350e-04,5.589099e-02,2.754689e+00,8.823333e-02,-2.595721e-01
6.717965402159634e-04,5.289212e-02,2.777987e+00,8.328635e-02,-2.373864e-01
6.794695312873918e-04,4.934818e-02,2.804157e+00,7.747452e-02,-2.124747e-01
6.840035714659632e-04,4.704461e-02,2.820521e+00,7.371338e-02,-1.968571e-01
6.885376116445345e-04,4.460938e-02,2.837434e+00,6.974717e-02,-1.807002e-01
6.930716518231059e-04,4.204249e-02,2.854895e+00,6.557586e-02,-1.640041e-01
6.976056920016771e-04,3.934392e-02,2.872903e+00,6.119948e-02,-1.467687e-01
7.021397321802485e-04,3.651370e-02,2.891460e+00,5.661801e-02,-1.289940e-01
7.066737723588198e-04,3.355181e-02,2.910565e+00,5.183146e-02,-1.106800e-01
7.112078125373912e-04,3.045826e-02,2.930218e+00,4.683983e-02,-9.182682e-02
7.133004464659626e-04,2.900422e-02,2.939349e+00,4.449636e-02,-8.306044e-02
7.153930803945340e-04,2.753268e-02,2.948529e+00,4.212627e-02,-7.424530e-02
7.174857143231054e-04,2.604365e-02,2.957756e+00,3.972957e-02,-6.538141e-02
7.195783482516766e-04,2.453710e-02,2.967030e+00,3.730626e-02,-5.646877e-02
7.216709821802480e-04,2.301306e-02,2.976353e+00,3.485632e-02,-4.750736e-02
7.237636161088194e-04,2.147151e-02,2.985723e+00,3.237977e-02,-3.849720e-02
7.258562500373908e-04,1.991246e-02,2.995141e+00,2.987660e-02,-2.943829e-02
7.331804687873907e-04,1.436343e-02,3.028197e+00,2.097903e-02,2.378927e-03
7.356218750373906e-04,1.247981e-02,3.039261e+00,1.796277e-02,1.303456e-02
7.380632812873906e-04,1.058888e-02,3.050290e+00,1.493676e-02,2.365980e-02
7.405046875373905e-04,8.690621e-03,3.061285e+00,1.190099e-02,3.425465e-02
7.429460937873905e-04,6.785049e-03,3.072245e+00,8.855460e-03,4.481910e-02
7.453875000373904e-04,4.872158e-03,3.083172e+00,5.800171e-03,5.535316e-02
7.478289062873904e-04,2.951950e-03,3.094064e+00,2.735123e-03,6.585683e-02
7.502703125373903e-04,1.024424e-03,3.104922e+00,-3.396841e-04,7.633011e-02
7.537580357516759e-04,-1.737158e-03,3.120343e+00,-4.741549e-03,9.120882e-02
7.572457589659616e-04,-4.482364e-03,3.135520e+00,-9.113485e-03,1.058540e-01
7.607334821802472e-04,-7.211194e-03,3.150454e+00,-1.345549e-02,1.202657e-01
7.642212053945329e-04,-9.923648e-03,3.165143e+00,-1.776757e-02,1.344439e-01
7.677089286088185e-04,-1.261973e-02,3.179589e+00,-2.204972e-02,1.483885e-01
7.711966518231042e-04,-1.529943e-02,3.193791e+00,-2.630195e-02,1.620997e-01
7.746843750373898e-04,-1.796275e-02,3.207749e+00,-3.052424e-02,1.755773e-01
7.806135045016753e-04,-2.244267e-02,3.230833e+00,-3.761659e-02,1.978701e-01
7.865426339659610e-04,-2.674117e-02,3.252540e+00,-4.441085e-02,2.188230e-01
7.924717634302465e-04,-3.085826e-02,3.272870e+00,-5.090703e-02,2.384362e-01
7.984008928945322e-04,-3.479393e-02,3.291821e+00,-5.710512e-02,2.567096e-01
8.043300223588177e-04,-3.854819e-02,3.309396e+00,-6.300513e-02,2.736433e-01
8.102591518231034e-04,-4.212103e-02,3.325593e+00,-6.860705e-02,2.892371e-01
8.161882812873889e-04,-4.551246e-02,3.340412e+00,-7.391089e-02,3.034912e-01
8.270002232516744e-04,-5.106531e-02,3.362846e+00,-8.255055e-02,3.249903e-01
8.378121652159599e-04,-5.552836e-02,3.378867e+00,-8.944603e-02,3.402408e-01
8.486241071802453e-04,-5.890160e-02,3.388477e+00,-9.459734e-02,3.492428e-01
8.594360491445309e-04,-6.118504e-02,3.391674e+00,-9.800447e-02,3.519962e-01
8.702479911088163e-04,-6.237867e-02,3.388459e+00,-9.966743e-02,3.485010e-01
8.810599330731019e-04,-6.248249e-02,3.378831e+00,-9.958621e-02,3.387573e-01
8.918718750373873e-04,-6.149650e-02,3.362792e+00,-9.776082e-02,3.227650e-01
8.988473214659586e-04,-6.015418e-02,3.348832e+00,-9.546611e-02,3.089440e-01
9.058227678945299e-04,-5.839315e-02,3.332791e+00,-9.251012e-02,2.931231e-01
9.127982143231012e-04,-5.621339e-02,3.314668e+00,-8.889284e-02,2.753025e-01
9.197736607516724e-04,-5.361492e-02,3.294464e+00,-8.461427e-02,2.554820e-01
9.267491071802437e-04,-5.059773e-02,3.272177e+00,-7.967441e-02,2.336618e-01
9.337245536088150e-04,-4.716181e-02,3.247808e+00,-7.407326e-02,2.098417e-01
9.407000000373863e-04,-4.330719e-02,3.221357e+00,-6.781083e-02,1.840218e-01
9.448852678945291e-04,-4.084684e-02,3.204882e+00,-6.382317e-02,1.679673e-01
9.490705357516718e-04,-3.829219e-02,3.188037e+00,-5.968878e-02,1.515726e-01
9.532558036088145e-04,-3.564324e-02,3.170822e+00,-5.540768e-02,1.348378e-01
9.574410714659573e-04,-3.289999e-02,3.153238e+00,-5.097986e-02,1.177629e-01
9.616263393231001e-04,-3.006243e-02,3.135284e+00,-4.640533e-02,1.003479e-01
9.658116071802428e-04,-2.713057e-02,3.116961e+00,-4.168407e-02,8.259285e-02
9.699968750373856e-04,-2.410441e-02,3.098268e+00,-3.681611e-02,6.449766e-02
9.773210937873856e-04,-1.868788e-02,3.065329e+00,-2.811493e-02,3.267031e-02
9.846453125373854e-04,-1.311401e-02,3.032070e+00,-1.917576e-02,6.045384e-04
9.919695312873853e-04,-7.429952e-03,2.998774e+00,-1.007427e-02,-3.142258e-02
9.947597098588139e-04,-5.238904e-03,2.986100e+00,-6.569619e-03,-4.359274e-02
9.975498884302423e-04,-3.048245e-03,2.973516e+00,-3.067650e-03,-5.566437e-02
1.000340067001671e-03,-8.579755e-04,2.961023e+00,4.316432e-04,-6.763745e-02
1.003130245573099e-03,1.331905e-03,2.948619e+00,3.928260e-03,-7.951199e-02
1.005920424144528e-03,3.521397e-03,2.936306e+00,7.422199e-03,-9.128800e-02
1.008710602715956e-03,5.710500e-03,2.924083e+00,1.091346e-02,-1.029655e-01
1.011500781287385e-03,7.899214e-03,2.911950e+00,1.440205e-02,-1.145444e-01
1.016383593787385e-03,1.172671e-02,2.890955e+00,2.049753e-02,-1.345452e-01
1.021266406287385e-03,1.547559e-02,2.870665e+00,2.646121e-02,-1.538372e-01
1.026149218787385e-03,1.914586e-02,2.851081e+00,3.229310e-02,-1.724204e-01
1.031032031287384e-03,2.273752e-02,2.832203e+00,3.799319e-02,-1.902949e-01
1.035914843787384e-03,2.625057e-02,2.814031e+00,4.356149e-02,-2.074606e-01
1.040797656287384e-03,2.968500e-02,2.796565e+00,4.899799e-02,-2.239176e-01
1.045680468787384e-03,3.304082e-02,2.779804e+00,5.430270e-02,-2.396658e-01
1.053353459858813e-03,3.809752e-02,2.755275e+00,6.227834e-02,-2.625946e-01
1.061026450930241e-03,4.270632e-02,2.733740e+00,6.952705e-02,-2.826744e-01
1.068699442001669e-03,4.686721e-02,2.715197e+00,7.604882e-02,-2.999053e-01
1.076372433073098e-03,5.058019e-02,2.699647e+00,8.184365e-02,-3.142872e-01
1.084045424144526e-03,5.384527e-02,2.687091e+00,8.691155e-02,-3.258200e-01
1.091718415215955e-03,5.666244e-02,2.677528e+00,9.125251e-02,-3.345039e-01
1.099391406287383e-03,5.903171e-02,2.670957e+00,9.486654e-02,-3.403388e-01
1.108808258965954e-03,6.108399e-02,2.668271e+00,9.792115e-02,-3.425727e-01
1.118225111644525e-03,6.227667e-02,2.670406e+00,9.960405e-02,-3.402845e-01
1.127641964323097e-03,6.260974e-02,2.677363e+00,9.991522e-02,-3.334743e-01
1.137058817001668e-03,6.208322e-02,2.689141e+00,9.885467e-02,-3.221419e-01
1.146475669680239e-03,6.069709e-02,2.705742e+00,9.642240e-02,-3.062875e-01
1.155892522358810e-03,5.845135e-02,2.727164e+00,9.261842e-02,-2.859109e-01
1.165309375037382e-03,5.534602e-02,2.753408e+00,8.744271e-02,-2.610123e-01
1.170889732180239e-03,5.312156e-02,2.770766e+00,8.377179e-02,-2.444977e-01
1.176470089323096e-03,5.066920e-02,2.789152e+00,7.974379e-02,-2.269801e-01
1.182050446465953e-03,4.798893e-02,2.808568e+00,7.535870e-02,-2.084593e-01
1.187630803608810e-03,4.508077e-02,2.829012e+00,7.061652e-02,-1.889354e-01
1.193211160751667e-03,4.194469e-02,2.850486e+00,6.551725e-02,-1.684084e-01
1.198791517894524e-03,3.858072e-02,2.872988e+00,6.006090e-02,-1.468783e-01
1.204371875037381e-03,3.498884e-02,2.896519e+00,5.424745e-02,-1.243451e-01
1.207162053608809e-03,3.313971e-02,2.908440e+00,5.125960e-02,-1.129170e-01
1.209952232180238e-03,3.125564e-02,2.920469e+00,4.821828e-02,-1.013792e-01
1.212742410751666e-03,2.933664e-02,2.932607e+00,4.512349e-02,-8.973172e-02
1.215532589323095e-03,2.738270e-02,2.944852e+00,4.197523e-02,-7.797453e-02
1.218322767894523e-03,2.539382e-02,2.957207e+00,3.877350e-02,-6.610764e-02
1.221112946465952e-03,2.337001e-02,2.969669e+00,3.551830e-02,-5.413104e-02
1.223903125037380e-03,2.131126e-02,2.982240e+00,3.220963e-02,-4.204474e-02
1.231227343787380e-03,1.580431e-02,3.015358e+00,2.337222e-02,-1.018138e-02
1.238551562537380e-03,1.016269e-02,3.048568e+00,1.433695e-02,2.180194e-02
1.242039285751666e-03,7.429514e-03,3.064408e+00,9.966038e-03,3.706704e-02
1.245527008965951e-03,4.695029e-03,3.080099e+00,5.596949e-03,5.219363e-02
1.249014732180237e-03,1.959234e-03,3.095643e+00,1.229687e-03,6.718169e-02
1.252502455394523e-03,-7.778709e-04,3.111039e+00,-3.135749e-03,8.203124e-02
1.255990178608808e-03,-3.516285e-03,3.126287e+00,-7.499357e-03,9.674226e-02
1.259477901823094e-03,-6.256010e-03,3.141388e+00,-1.186114e-02,1.113148e-01
1.262965625037380e-03,-8.997044e-03,3.156341e+00,-1.622109e-02,1.257488e-01
1.268197209858808e-03,-1.309697e-02,3.178396e+00,-2.273467e-02,1.470441e-01
1.273428794680236e-03,-1.709850e-02,3.199583e+00,-2.908356e-02,1.674991e-01
1.278660379501665e-03,-2.100166e-02,3.219903e+00,-3.526775e-02,1.871139e-01
1.283891964323093e-03,-2.480643e-02,3.239355e+00,-4.128725e-02,2.058883e-01
1.289123549144522e-03,-2.851282e-02,3.257939e+00,-4.714205e-02,2.238224e-01
1.294355133965950e-03,-3.212083e-02,3.275656e+00,-5.283216e-02,2.409162e-01
1.299586718787379e-03,-3.563045e-02,3.292506e+00,-5.835758e-02,2.571696e-01
1.307608482180236e-03,-4.074298e-02,3.316179e+00,-6.638510e-02,2.799845e-01
1.315630245573093e-03,-4.533994e-02,3.336552e+00,-7.358095e-02,2.995803e-01
1.323652008965950e-03,-4.942135e-02,3.353625e+00,-7.994513e-02,3.159569e-01
1.331673772358807e-03,-5.298719e-02,3.367398e+00,-8.547763e-02,3.291144e-01
1.339695535751664e-03,-5.603747e-02,3.377871e+00,-9.017846e-02,3.390529e-01
1.347717299144521e-03,-5.857218e-02,3.385044e+00,-9.404762e-02,3.457722e-01
1.355739062537378e-03,-6.059134e-02,3.388916e+00,-9.708510e-02,3.492724e-01
1.364807142894520e-03,-6.201324e-02,3.388248e+00,-9.914231e-02,3.482916e-01
1.373875223251663e-03,-6.264014e-02,3.383285e+00,-9.993625e-02,3.431456e-01
1.382943303608806e-03,-6.247204e-02,3.374027e+00,-9.946691e-02,3.338343e-01
1.392011383965948e-03,-6.150893e-02,3.360473e+00,-9.773430e-02,3.203576e-01
1.401079464323091e-03,-5.975083e-02,3.342625e+00,-9.473841e-02,3.027157e-01
1.410147544680233e-03,-5.719772e-02,3.320482e+00,-9.047926e-02,2.809085e-01
1.419215625037376e-03,-5.384962e-02,3.294043e+00,-8.495683e-02,2.549360e-01
1.424795982180233e-03,-5.142926e-02,3.276091e+00,-8.099239e-02,2.373458e-01
1.430376339323090e-03,-4.879201e-02,3.257163e+00,-7.668768e-02,2.188323e-01
